Sample in Buffer,Sample in Window,TRIGGER,base_i/system_ila_0/inst/net_slot_0_axis_tdata[23:0],base_i/system_ila_0/inst/net_slot_0_axis_tdest,base_i/system_ila_0/inst/net_slot_0_axis_tid,base_i/system_ila_0/inst/net_slot_0_axis_tkeep[2:0],base_i/system_ila_0/inst/net_slot_0_axis_tstrb[2:0],base_i/system_ila_0/inst/net_slot_0_axis_tuser,base_i/system_ila_0/inst/net_slot_0_axis_tvalid,base_i/system_ila_0/inst/net_slot_0_axis_tready,base_i/system_ila_0/inst/net_slot_0_axis_tlast,base_i/system_ila_0/inst/net_slot_1_axis_tdata[23:0],base_i/system_ila_0/inst/net_slot_1_axis_tdest,base_i/system_ila_0/inst/net_slot_1_axis_tid,base_i/system_ila_0/inst/net_slot_1_axis_tuser,base_i/system_ila_0/inst/net_slot_1_axis_tvalid,base_i/system_ila_0/inst/net_slot_1_axis_tready,base_i/system_ila_0/inst/net_slot_1_axis_tlast,base_i/system_ila_0/inst/net_slot_2_axis_tdata[31:0],base_i/system_ila_0/inst/net_slot_2_axis_tkeep[3:0],base_i/system_ila_0/inst/net_slot_2_axis_tstrb[3:0],base_i/system_ila_0/inst/net_slot_2_axis_tvalid,base_i/system_ila_0/inst/net_slot_2_axis_tready,base_i/system_ila_0/inst/net_slot_2_axis_tlast,Interface_(i1:s0)_(v_tpg_test_0_m_axis_video)[2:0],Interface_(i1:s1)_(axis_switch_in_M00_AXIS)[2:0],Interface_(i1:s2)_(Conn)[2:0],T_Channel_(i1:s0)_(v_tpg_test_0_m_axis_video)[2:0],T_Channel_(i1:s1)_(axis_switch_in_M00_AXIS)[2:0],T_Channel_(i1:s2)_(Conn)[2:0]
Radix - UNSIGNED,UNSIGNED,UNSIGNED,HEX,HEX,HEX,HEX,HEX,HEX,HEX,HEX,HEX,HEX,HEX,HEX,HEX,HEX,HEX,HEX,HEX,HEX,HEX,HEX,HEX,HEX,HEX,HEX,HEX,HEX,HEX,HEX
0,0,1,eaea69,0,0,7,0,0,1,1,0,eaea69,0,0,0,1,1,0,d469eaea,0,f,1,1,0,"_","_","_","_","_","_"
1,1,0,ead469,0,0,7,0,0,1,1,0,ead469,0,0,0,1,1,0,eaea69ea,0,f,1,1,0,"Active","Active","Active","Stream Beat","Stream Beat","Stream Beat"
2,2,0,eaea69,0,0,7,0,0,1,1,0,eaea69,0,0,0,1,1,0,eaea69ea,0,f,0,1,0,"Active","Active","_","Stream Beat","Stream Beat","_"
3,3,0,ead469,0,0,7,0,0,1,1,0,ead469,0,0,0,1,1,0,69ead469,0,f,1,1,0,"Active","Active","Active","Stream Beat","Stream Beat","Stream Beat"
4,4,0,eaea69,0,0,7,0,0,1,1,0,eaea69,0,0,0,1,1,0,d469eaea,0,f,1,1,0,"Active","Active","Active","Stream Beat","Stream Beat","Stream Beat"
5,5,0,ead469,0,0,7,0,0,1,1,0,ead469,0,0,0,1,1,0,eaea69ea,0,f,1,1,0,"Active","Active","Active","Stream Beat","Stream Beat","Stream Beat"
6,6,0,eaea69,0,0,7,0,0,1,1,0,eaea69,0,0,0,1,1,0,eaea69ea,0,f,0,1,0,"Active","Active","_","Stream Beat","Stream Beat","_"
7,7,0,ead469,0,0,7,0,0,1,1,0,ead469,0,0,0,1,1,0,69ead469,0,f,1,1,0,"Active","Active","Active","Stream Beat","Stream Beat","Stream Beat"
8,8,0,eaea69,0,0,7,0,0,1,1,0,eaea69,0,0,0,1,1,0,d469eaea,0,f,1,1,0,"Active","Active","Active","Stream Beat","Stream Beat","Stream Beat"
9,9,0,ead469,0,0,7,0,0,1,1,0,ead469,0,0,0,1,1,0,eaea69ea,0,f,1,1,0,"Active","Active","Active","Stream Beat","Stream Beat","Stream Beat"
10,10,0,eaea69,0,0,7,0,0,1,1,0,eaea69,0,0,0,1,1,0,eaea69ea,0,f,0,1,0,"Active","Active","_","Stream Beat","Stream Beat","_"
11,11,0,ead469,0,0,7,0,0,1,1,0,ead469,0,0,0,1,1,0,69ead469,0,f,1,1,0,"Active","Active","Active","Stream Beat","Stream Beat","Stream Beat"
12,12,0,eaea69,0,0,7,0,0,1,1,0,eaea69,0,0,0,1,1,0,d469eaea,0,f,1,1,0,"Active","Active","Active","Stream Beat","Stream Beat","Stream Beat"
13,13,0,ead469,0,0,7,0,0,1,1,0,ead469,0,0,0,1,1,0,eaea69ea,0,f,1,1,0,"Active","Active","Active","Stream Beat","Stream Beat","Stream Beat"
14,14,0,eaea69,0,0,7,0,0,1,1,0,eaea69,0,0,0,1,1,0,eaea69ea,0,f,0,1,0,"Active","Active","_","Stream Beat","Stream Beat","_"
15,15,0,ead469,0,0,7,0,0,1,1,0,ead469,0,0,0,1,1,0,69ead469,0,f,1,1,0,"Active","Active","Active","Stream Beat","Stream Beat","Stream Beat"
16,16,0,eaea69,0,0,7,0,0,1,1,0,eaea69,0,0,0,1,1,0,d469eaea,0,f,1,1,0,"Active","Active","Active","Stream Beat","Stream Beat","Stream Beat"
17,17,0,ead469,0,0,7,0,0,1,1,0,ead469,0,0,0,1,1,0,eaea69ea,0,f,1,1,0,"Active","Active","Active","Stream Beat","Stream Beat","Stream Beat"
18,18,0,eaea69,0,0,7,0,0,1,1,0,eaea69,0,0,0,1,1,0,eaea69ea,0,f,0,1,0,"Active","Active","_","Stream Beat","Stream Beat","_"
19,19,0,ead469,0,0,7,0,0,1,1,0,ead469,0,0,0,1,1,0,69ead469,0,f,1,1,0,"Active","Active","Active","Stream Beat","Stream Beat","Stream Beat"
20,20,0,eaea69,0,0,7,0,0,1,1,0,eaea69,0,0,0,1,1,0,d469eaea,0,f,1,1,0,"Active","Active","Active","Stream Beat","Stream Beat","Stream Beat"
21,21,0,ff554c,0,0,7,0,0,1,1,0,ff554c,0,0,0,1,1,0,eaea69ea,0,f,1,1,0,"Active","Active","Active","Stream Beat","Stream Beat","Stream Beat"
22,22,0,ffff4c,0,0,7,0,0,1,1,0,ffff4c,0,0,0,1,1,0,eaea69ea,0,f,0,1,0,"Active","Active","_","Stream Beat","Stream Beat","_"
23,23,0,ff554c,0,0,7,0,0,1,1,0,ff554c,0,0,0,1,1,0,69ead469,0,f,1,1,0,"Active","Active","Active","Stream Beat","Stream Beat","Stream Beat"
24,24,0,ffff4c,0,0,7,0,0,1,1,0,ffff4c,0,0,0,1,1,0,d469eaea,0,f,1,1,0,"Active","Active","Active","Stream Beat","Stream Beat","Stream Beat"
25,25,0,ff554c,0,0,7,0,0,1,1,0,ff554c,0,0,0,1,1,0,eaea69ea,0,f,1,1,0,"Active","Active","Active","Stream Beat","Stream Beat","Stream Beat"
26,26,0,ffff4c,0,0,7,0,0,1,1,0,ffff4c,0,0,0,1,1,0,eaea69ea,0,f,0,1,0,"Active","Active","_","Stream Beat","Stream Beat","_"
27,27,0,ff554c,0,0,7,0,0,1,1,0,ff554c,0,0,0,1,1,0,69ead469,0,f,1,1,0,"Active","Active","Active","Stream Beat","Stream Beat","Stream Beat"
28,28,0,ffff4c,0,0,7,0,0,1,1,0,ffff4c,0,0,0,1,1,0,d469eaea,0,f,1,1,0,"Active","Active","Active","Stream Beat","Stream Beat","Stream Beat"
29,29,0,ff554c,0,0,7,0,0,1,1,0,ff554c,0,0,0,1,1,0,eaea69ea,0,f,1,1,0,"Active","Active","Active","Stream Beat","Stream Beat","Stream Beat"
30,30,0,ffff4c,0,0,7,0,0,1,1,0,ffff4c,0,0,0,1,1,0,eaea69ea,0,f,0,1,0,"Active","Active","_","Stream Beat","Stream Beat","_"
31,31,0,ff554c,0,0,7,0,0,1,1,0,ff554c,0,0,0,1,1,0,69ead469,0,f,1,1,0,"Active","Active","Active","Stream Beat","Stream Beat","Stream Beat"
32,32,0,ffff4c,0,0,7,0,0,1,1,0,ffff4c,0,0,0,1,1,0,d469eaea,0,f,1,1,0,"Active","Active","Active","Stream Beat","Stream Beat","Stream Beat"
33,33,0,ff554c,0,0,7,0,0,1,1,0,ff554c,0,0,0,1,1,0,eaea69ea,0,f,1,1,0,"Active","Active","Active","Stream Beat","Stream Beat","Stream Beat"
34,34,0,ffff4c,0,0,7,0,0,1,1,0,ffff4c,0,0,0,1,1,0,eaea69ea,0,f,0,1,0,"Active","Active","_","Stream Beat","Stream Beat","_"
35,35,0,ff554c,0,0,7,0,0,1,1,0,ff554c,0,0,0,1,1,0,4cff554c,0,f,1,1,0,"Active","Active","Active","Stream Beat","Stream Beat","Stream Beat"
36,36,0,ffff4c,0,0,7,0,0,1,1,0,ffff4c,0,0,0,1,1,0,554cffff,0,f,1,1,0,"Active","Active","Active","Stream Beat","Stream Beat","Stream Beat"
37,37,0,ff554c,0,0,7,0,0,1,1,0,ff554c,0,0,0,1,1,0,ffff4cff,0,f,1,1,0,"Active","Active","Active","Stream Beat","Stream Beat","Stream Beat"
38,38,0,ffff4c,0,0,7,0,0,1,1,0,ffff4c,0,0,0,1,1,0,ffff4cff,0,f,0,1,0,"Active","Active","_","Stream Beat","Stream Beat","_"
39,39,0,ff554c,0,0,7,0,0,1,1,0,ff554c,0,0,0,1,1,0,4cff554c,0,f,1,1,0,"Active","Active","Active","Stream Beat","Stream Beat","Stream Beat"
40,40,0,ffff4c,0,0,7,0,0,1,1,0,ffff4c,0,0,0,1,1,0,554cffff,0,f,1,1,0,"Active","Active","Active","Stream Beat","Stream Beat","Stream Beat"
41,41,0,ff554c,0,0,7,0,0,1,1,0,ff554c,0,0,0,1,1,0,ffff4cff,0,f,1,1,0,"Active","Active","Active","Stream Beat","Stream Beat","Stream Beat"
42,42,0,ffff4c,0,0,7,0,0,1,1,0,ffff4c,0,0,0,1,1,0,ffff4cff,0,f,0,1,0,"Active","Active","_","Stream Beat","Stream Beat","_"
43,43,0,ff554c,0,0,7,0,0,1,1,0,ff554c,0,0,0,1,1,0,4cff554c,0,f,1,1,0,"Active","Active","Active","Stream Beat","Stream Beat","Stream Beat"
44,44,0,ffff4c,0,0,7,0,0,1,1,0,ffff4c,0,0,0,1,1,0,554cffff,0,f,1,1,0,"Active","Active","Active","Stream Beat","Stream Beat","Stream Beat"
45,45,0,ff554c,0,0,7,0,0,1,1,0,ff554c,0,0,0,1,1,0,ffff4cff,0,f,1,1,0,"Active","Active","Active","Stream Beat","Stream Beat","Stream Beat"
46,46,0,ffff4c,0,0,7,0,0,1,1,0,ffff4c,0,0,0,1,1,0,ffff4cff,0,f,0,1,0,"Active","Active","_","Stream Beat","Stream Beat","_"
47,47,0,ff554c,0,0,7,0,0,1,1,0,ff554c,0,0,0,1,1,0,4cff554c,0,f,1,1,0,"Active","Active","Active","Stream Beat","Stream Beat","Stream Beat"
48,48,0,ffff4c,0,0,7,0,0,1,1,0,ffff4c,0,0,0,1,1,0,554cffff,0,f,1,1,0,"Active","Active","Active","Stream Beat","Stream Beat","Stream Beat"
49,49,0,ff554c,0,0,7,0,0,1,1,0,ff554c,0,0,0,1,1,0,ffff4cff,0,f,1,1,0,"Active","Active","Active","Stream Beat","Stream Beat","Stream Beat"
50,50,0,ffff4c,0,0,7,0,0,1,1,0,ffff4c,0,0,0,1,1,0,ffff4cff,0,f,0,1,0,"Active","Active","_","Stream Beat","Stream Beat","_"
51,51,0,ff554c,0,0,7,0,0,1,1,0,ff554c,0,0,0,1,1,0,4cff554c,0,f,1,1,0,"Active","Active","Active","Stream Beat","Stream Beat","Stream Beat"
52,52,0,ffff4c,0,0,7,0,0,1,1,0,ffff4c,0,0,0,1,1,0,554cffff,0,f,1,1,0,"Active","Active","Active","Stream Beat","Stream Beat","Stream Beat"
53,53,0,ff554c,0,0,7,0,0,1,1,0,ff554c,0,0,0,1,1,0,ffff4cff,0,f,1,1,0,"Active","Active","Active","Stream Beat","Stream Beat","Stream Beat"
54,54,0,ffff4c,0,0,7,0,0,1,1,0,ffff4c,0,0,0,1,1,0,ffff4cff,0,f,0,1,0,"Active","Active","_","Stream Beat","Stream Beat","_"
55,55,0,ff554c,0,0,7,0,0,1,1,0,ff554c,0,0,0,1,1,0,4cff554c,0,f,1,1,0,"Active","Active","Active","Stream Beat","Stream Beat","Stream Beat"
56,56,0,ffff4c,0,0,7,0,0,1,1,0,ffff4c,0,0,0,1,1,0,554cffff,0,f,1,1,0,"Active","Active","Active","Stream Beat","Stream Beat","Stream Beat"
57,57,0,ff554c,0,0,7,0,0,1,1,0,ff554c,0,0,0,1,1,0,ffff4cff,0,f,1,1,0,"Active","Active","Active","Stream Beat","Stream Beat","Stream Beat"
58,58,0,ffff4c,0,0,7,0,0,1,1,0,ffff4c,0,0,0,1,1,0,ffff4cff,0,f,0,1,0,"Active","Active","_","Stream Beat","Stream Beat","_"
59,59,0,ff554c,0,0,7,0,0,1,1,0,ff554c,0,0,0,1,1,0,4cff554c,0,f,1,1,0,"Active","Active","Active","Stream Beat","Stream Beat","Stream Beat"
60,60,0,ffff4c,0,0,7,0,0,1,1,0,ffff4c,0,0,0,1,1,0,554cffff,0,f,1,1,0,"Active","Active","Active","Stream Beat","Stream Beat","Stream Beat"
61,61,0,ff554c,0,0,7,0,0,1,1,0,ff554c,0,0,0,1,1,0,ffff4cff,0,f,1,1,0,"Active","Active","Active","Stream Beat","Stream Beat","Stream Beat"
62,62,0,ffff4c,0,0,7,0,0,1,1,0,ffff4c,0,0,0,1,1,0,ffff4cff,0,f,0,1,0,"Active","Active","_","Stream Beat","Stream Beat","_"
63,63,0,ff554c,0,0,7,0,0,1,1,0,ff554c,0,0,0,1,1,0,4cff554c,0,f,1,1,0,"Active","Active","Active","Stream Beat","Stream Beat","Stream Beat"
64,64,0,ffff4c,0,0,7,0,0,1,1,0,ffff4c,0,0,0,1,1,0,554cffff,0,f,1,1,0,"Active","Active","Active","Stream Beat","Stream Beat","Stream Beat"
65,65,0,ff554c,0,0,7,0,0,1,1,0,ff554c,0,0,0,1,1,0,ffff4cff,0,f,1,1,0,"Active","Active","Active","Stream Beat","Stream Beat","Stream Beat"
66,66,0,ffff4c,0,0,7,0,0,1,1,0,ffff4c,0,0,0,1,1,0,ffff4cff,0,f,0,1,0,"Active","Active","_","Stream Beat","Stream Beat","_"
67,67,0,ff554c,0,0,7,0,0,1,1,0,ff554c,0,0,0,1,1,0,4cff554c,0,f,1,1,0,"Active","Active","Active","Stream Beat","Stream Beat","Stream Beat"
68,68,0,ffff4c,0,0,7,0,0,1,1,0,ffff4c,0,0,0,1,1,0,554cffff,0,f,1,1,0,"Active","Active","Active","Stream Beat","Stream Beat","Stream Beat"
69,69,0,ff554c,0,0,7,0,0,1,1,0,ff554c,0,0,0,1,1,0,ffff4cff,0,f,1,1,0,"Active","Active","Active","Stream Beat","Stream Beat","Stream Beat"
70,70,0,ffff4c,0,0,7,0,0,1,1,0,ffff4c,0,0,0,1,1,0,ffff4cff,0,f,0,1,0,"Active","Active","_","Stream Beat","Stream Beat","_"
71,71,0,ff554c,0,0,7,0,0,1,1,0,ff554c,0,0,0,1,1,0,4cff554c,0,f,1,1,0,"Active","Active","Active","Stream Beat","Stream Beat","Stream Beat"
72,72,0,ffff4c,0,0,7,0,0,1,1,0,ffff4c,0,0,0,1,1,0,554cffff,0,f,1,1,0,"Active","Active","Active","Stream Beat","Stream Beat","Stream Beat"
73,73,0,ff554c,0,0,7,0,0,1,1,0,ff554c,0,0,0,1,1,0,ffff4cff,0,f,1,1,0,"Active","Active","Active","Stream Beat","Stream Beat","Stream Beat"
74,74,0,ffff4c,0,0,7,0,0,1,1,0,ffff4c,0,0,0,1,1,0,ffff4cff,0,f,0,1,0,"Active","Active","_","Stream Beat","Stream Beat","_"
75,75,0,ff554c,0,0,7,0,0,1,1,0,ff554c,0,0,0,1,1,0,4cff554c,0,f,1,1,0,"Active","Active","Active","Stream Beat","Stream Beat","Stream Beat"
76,76,0,ffff4c,0,0,7,0,0,1,1,0,ffff4c,0,0,0,1,1,0,554cffff,0,f,1,1,0,"Active","Active","Active","Stream Beat","Stream Beat","Stream Beat"
77,77,0,ff554c,0,0,7,0,0,1,1,0,ff554c,0,0,0,1,1,0,ffff4cff,0,f,1,1,0,"Active","Active","Active","Stream Beat","Stream Beat","Stream Beat"
78,78,0,ffff4c,0,0,7,0,0,1,1,0,ffff4c,0,0,0,1,1,0,ffff4cff,0,f,0,1,0,"Active","Active","_","Stream Beat","Stream Beat","_"
79,79,0,ff554c,0,0,7,0,0,1,1,0,ff554c,0,0,0,1,1,0,4cff554c,0,f,1,1,0,"Active","Active","Active","Stream Beat","Stream Beat","Stream Beat"
80,80,0,ffff4c,0,0,7,0,0,1,1,0,ffff4c,0,0,0,1,1,0,554cffff,0,f,1,1,0,"Active","Active","Active","Stream Beat","Stream Beat","Stream Beat"
81,81,0,ff554c,0,0,7,0,0,1,1,0,ff554c,0,0,0,1,1,0,ffff4cff,0,f,1,1,0,"Active","Active","Active","Stream Beat","Stream Beat","Stream Beat"
82,82,0,ffff4c,0,0,7,0,0,1,1,0,ffff4c,0,0,0,1,1,0,ffff4cff,0,f,0,1,0,"Active","Active","_","Stream Beat","Stream Beat","_"
83,83,0,ff554c,0,0,7,0,0,1,1,0,ff554c,0,0,0,1,1,0,4cff554c,0,f,1,1,0,"Active","Active","Active","Stream Beat","Stream Beat","Stream Beat"
84,84,0,ffff4c,0,0,7,0,0,1,1,0,ffff4c,0,0,0,1,1,0,554cffff,0,f,1,1,0,"Active","Active","Active","Stream Beat","Stream Beat","Stream Beat"
85,85,0,ff554c,0,0,7,0,0,1,1,0,ff554c,0,0,0,1,1,0,ffff4cff,0,f,1,1,0,"Active","Active","Active","Stream Beat","Stream Beat","Stream Beat"
86,86,0,ffff4c,0,0,7,0,0,1,1,0,ffff4c,0,0,0,1,1,0,ffff4cff,0,f,0,1,0,"Active","Active","_","Stream Beat","Stream Beat","_"
87,87,0,ff554c,0,0,7,0,0,1,1,0,ff554c,0,0,0,1,1,0,4cff554c,0,f,1,1,0,"Active","Active","Active","Stream Beat","Stream Beat","Stream Beat"
88,88,0,ffff4c,0,0,7,0,0,1,1,0,ffff4c,0,0,0,1,1,0,554cffff,0,f,1,1,0,"Active","Active","Active","Stream Beat","Stream Beat","Stream Beat"
89,89,0,ff554c,0,0,7,0,0,1,1,0,ff554c,0,0,0,1,1,0,ffff4cff,0,f,1,1,0,"Active","Active","Active","Stream Beat","Stream Beat","Stream Beat"
90,90,0,ffff4c,0,0,7,0,0,1,1,0,ffff4c,0,0,0,1,1,0,ffff4cff,0,f,0,1,0,"Active","Active","_","Stream Beat","Stream Beat","_"
91,91,0,ff554c,0,0,7,0,0,1,1,0,ff554c,0,0,0,1,1,0,4cff554c,0,f,1,1,0,"Active","Active","Active","Stream Beat","Stream Beat","Stream Beat"
92,92,0,ffff4c,0,0,7,0,0,1,1,0,ffff4c,0,0,0,1,1,0,554cffff,0,f,1,1,0,"Active","Active","Active","Stream Beat","Stream Beat","Stream Beat"
93,93,0,ff554c,0,0,7,0,0,1,1,0,ff554c,0,0,0,1,1,0,ffff4cff,0,f,1,1,0,"Active","Active","Active","Stream Beat","Stream Beat","Stream Beat"
94,94,0,ffff4c,0,0,7,0,0,1,1,0,ffff4c,0,0,0,1,1,0,ffff4cff,0,f,0,1,0,"Active","Active","_","Stream Beat","Stream Beat","_"
95,95,0,ff554c,0,0,7,0,0,1,1,0,ff554c,0,0,0,1,1,0,4cff554c,0,f,1,1,0,"Active","Active","Active","Stream Beat","Stream Beat","Stream Beat"
96,96,0,ffff4c,0,0,7,0,0,1,1,0,ffff4c,0,0,0,1,1,0,554cffff,0,f,1,1,0,"Active","Active","Active","Stream Beat","Stream Beat","Stream Beat"
97,97,0,ff554c,0,0,7,0,0,1,1,0,ff554c,0,0,0,1,1,0,ffff4cff,0,f,1,1,0,"Active","Active","Active","Stream Beat","Stream Beat","Stream Beat"
98,98,0,ffff4c,0,0,7,0,0,1,1,0,ffff4c,0,0,0,1,1,0,ffff4cff,0,f,0,1,0,"Active","Active","_","Stream Beat","Stream Beat","_"
99,99,0,ff554c,0,0,7,0,0,1,1,0,ff554c,0,0,0,1,1,0,4cff554c,0,f,1,1,0,"Active","Active","Active","Stream Beat","Stream Beat","Stream Beat"
100,100,0,ffff4c,0,0,7,0,0,1,1,0,ffff4c,0,0,0,1,1,0,554cffff,0,f,1,1,0,"Active","Active","Active","Stream Beat","Stream Beat","Stream Beat"
101,101,0,6bff1d,0,0,7,0,0,1,1,0,6bff1d,0,0,0,1,1,0,ffff4cff,0,f,1,1,0,"Active","Active","Active","Stream Beat","Stream Beat","Stream Beat"
102,102,0,6b6b1d,0,0,7,0,0,1,1,0,6b6b1d,0,0,0,1,1,0,ffff4cff,0,f,0,1,0,"Active","Active","_","Stream Beat","Stream Beat","_"
103,103,0,6bff1d,0,0,7,0,0,1,1,0,6bff1d,0,0,0,1,1,0,4cff554c,0,f,1,1,0,"Active","Active","Active","Stream Beat","Stream Beat","Stream Beat"
104,104,0,6b6b1d,0,0,7,0,0,1,1,0,6b6b1d,0,0,0,1,1,0,554cffff,0,f,1,1,0,"Active","Active","Active","Stream Beat","Stream Beat","Stream Beat"
105,105,0,6bff1d,0,0,7,0,0,1,1,0,6bff1d,0,0,0,1,1,0,ffff4cff,0,f,1,1,0,"Active","Active","Active","Stream Beat","Stream Beat","Stream Beat"
106,106,0,6b6b1d,0,0,7,0,0,1,1,0,6b6b1d,0,0,0,1,1,0,ffff4cff,0,f,0,1,0,"Active","Active","_","Stream Beat","Stream Beat","_"
107,107,0,6bff1d,0,0,7,0,0,1,1,0,6bff1d,0,0,0,1,1,0,4cff554c,0,f,1,1,0,"Active","Active","Active","Stream Beat","Stream Beat","Stream Beat"
108,108,0,6b6b1d,0,0,7,0,0,1,1,0,6b6b1d,0,0,0,1,1,0,554cffff,0,f,1,1,0,"Active","Active","Active","Stream Beat","Stream Beat","Stream Beat"
109,109,0,6bff1d,0,0,7,0,0,1,1,0,6bff1d,0,0,0,1,1,0,ffff4cff,0,f,1,1,0,"Active","Active","Active","Stream Beat","Stream Beat","Stream Beat"
110,110,0,6b6b1d,0,0,7,0,0,1,1,0,6b6b1d,0,0,0,1,1,0,ffff4cff,0,f,0,1,0,"Active","Active","_","Stream Beat","Stream Beat","_"
111,111,0,6bff1d,0,0,7,0,0,1,1,0,6bff1d,0,0,0,1,1,0,4cff554c,0,f,1,1,0,"Active","Active","Active","Stream Beat","Stream Beat","Stream Beat"
112,112,0,6b6b1d,0,0,7,0,0,1,1,0,6b6b1d,0,0,0,1,1,0,554cffff,0,f,1,1,0,"Active","Active","Active","Stream Beat","Stream Beat","Stream Beat"
113,113,0,6bff1d,0,0,7,0,0,1,1,0,6bff1d,0,0,0,1,1,0,ffff4cff,0,f,1,1,0,"Active","Active","Active","Stream Beat","Stream Beat","Stream Beat"
114,114,0,6b6b1d,0,0,7,0,0,1,1,0,6b6b1d,0,0,0,1,1,0,ffff4cff,0,f,0,1,0,"Active","Active","_","Stream Beat","Stream Beat","_"
115,115,0,6bff1d,0,0,7,0,0,1,1,0,6bff1d,0,0,0,1,1,0,1d6bff1d,0,f,1,1,0,"Active","Active","Active","Stream Beat","Stream Beat","Stream Beat"
116,116,0,6b6b1d,0,0,7,0,0,1,1,0,6b6b1d,0,0,0,1,1,0,ff1d6b6b,0,f,1,1,0,"Active","Active","Active","Stream Beat","Stream Beat","Stream Beat"
117,117,0,6bff1d,0,0,7,0,0,1,1,0,6bff1d,0,0,0,1,1,0,6b6b1d6b,0,f,1,1,0,"Active","Active","Active","Stream Beat","Stream Beat","Stream Beat"
118,118,0,6b6b1d,0,0,7,0,0,1,1,0,6b6b1d,0,0,0,1,1,0,6b6b1d6b,0,f,0,1,0,"Active","Active","_","Stream Beat","Stream Beat","_"
119,119,0,6bff1d,0,0,7,0,0,1,1,0,6bff1d,0,0,0,1,1,0,1d6bff1d,0,f,1,1,0,"Active","Active","Active","Stream Beat","Stream Beat","Stream Beat"
120,120,0,6b6b1d,0,0,7,0,0,1,1,0,6b6b1d,0,0,0,1,1,0,ff1d6b6b,0,f,1,1,0,"Active","Active","Active","Stream Beat","Stream Beat","Stream Beat"
121,121,0,6bff1d,0,0,7,0,0,1,1,0,6bff1d,0,0,0,1,1,0,6b6b1d6b,0,f,1,1,0,"Active","Active","Active","Stream Beat","Stream Beat","Stream Beat"
122,122,0,6b6b1d,0,0,7,0,0,1,1,0,6b6b1d,0,0,0,1,1,0,6b6b1d6b,0,f,0,1,0,"Active","Active","_","Stream Beat","Stream Beat","_"
123,123,0,6bff1d,0,0,7,0,0,1,1,0,6bff1d,0,0,0,1,1,0,1d6bff1d,0,f,1,1,0,"Active","Active","Active","Stream Beat","Stream Beat","Stream Beat"
124,124,0,6b6b1d,0,0,7,0,0,1,1,0,6b6b1d,0,0,0,1,1,0,ff1d6b6b,0,f,1,1,0,"Active","Active","Active","Stream Beat","Stream Beat","Stream Beat"
125,125,0,6bff1d,0,0,7,0,0,1,1,0,6bff1d,0,0,0,1,1,0,6b6b1d6b,0,f,1,1,0,"Active","Active","Active","Stream Beat","Stream Beat","Stream Beat"
126,126,0,6b6b1d,0,0,7,0,0,1,1,0,6b6b1d,0,0,0,1,1,0,6b6b1d6b,0,f,0,1,0,"Active","Active","_","Stream Beat","Stream Beat","_"
127,127,0,6bff1d,0,0,7,0,0,1,1,0,6bff1d,0,0,0,1,1,0,1d6bff1d,0,f,1,1,0,"Active","Active","Active","Stream Beat","Stream Beat","Stream Beat"
128,128,0,6b6b1d,0,0,7,0,0,1,1,0,6b6b1d,0,0,0,1,1,0,ff1d6b6b,0,f,1,1,0,"Active","Active","Active","Stream Beat","Stream Beat","Stream Beat"
129,129,0,6bff1d,0,0,7,0,0,1,1,0,6bff1d,0,0,0,1,1,0,6b6b1d6b,0,f,1,1,0,"Active","Active","Active","Stream Beat","Stream Beat","Stream Beat"
130,130,0,6b6b1d,0,0,7,0,0,1,1,0,6b6b1d,0,0,0,1,1,0,6b6b1d6b,0,f,0,1,0,"Active","Active","_","Stream Beat","Stream Beat","_"
131,131,0,6bff1d,0,0,7,0,0,1,1,0,6bff1d,0,0,0,1,1,0,1d6bff1d,0,f,1,1,0,"Active","Active","Active","Stream Beat","Stream Beat","Stream Beat"
132,132,0,6b6b1d,0,0,7,0,0,1,1,0,6b6b1d,0,0,0,1,1,0,ff1d6b6b,0,f,1,1,0,"Active","Active","Active","Stream Beat","Stream Beat","Stream Beat"
133,133,0,6bff1d,0,0,7,0,0,1,1,0,6bff1d,0,0,0,1,1,0,6b6b1d6b,0,f,1,1,0,"Active","Active","Active","Stream Beat","Stream Beat","Stream Beat"
134,134,0,6b6b1d,0,0,7,0,0,1,1,0,6b6b1d,0,0,0,1,1,0,6b6b1d6b,0,f,0,1,0,"Active","Active","_","Stream Beat","Stream Beat","_"
135,135,0,6bff1d,0,0,7,0,0,1,1,0,6bff1d,0,0,0,1,1,0,1d6bff1d,0,f,1,1,0,"Active","Active","Active","Stream Beat","Stream Beat","Stream Beat"
136,136,0,6b6b1d,0,0,7,0,0,1,1,0,6b6b1d,0,0,0,1,1,0,ff1d6b6b,0,f,1,1,0,"Active","Active","Active","Stream Beat","Stream Beat","Stream Beat"
